Sample in Buffer	Sample in Window	adc_data_ch0	adc_data_ch1	adc_data_ch2	adc_data_ch3
0	0	-2362	1741	924	413	
1	1	-1970	-1964	-2486	-2685	
2	2	1791	-2182	-1554	-1141	
3	3	2387	1479	2132	2380	
4	4	-1196	2660	2162	1774	
5	5	-2778	-659	-1485	-1895	
6	6	422	-2767	-2533	-2308	
7	7	2831	36	881	1295	
8	8	300	2855	2805	2625	
9	9	-2794	839	-54	-572	
10	10	-1108	-2527	-2773	-2800	
11	11	2455	-1418	-637	-171	
12	12	1698	2258	2659	2739	
13	13	-2028	2119	1393	905	
14	14	-2314	-1574	-2219	-2506	
15	15	1375	-2460	-1943	-1590	
16	16	2613	1018	1757	2077	
17	17	-706	2811	2452	2124	
18	18	-2868	-166	-1035	-1498	
19	19	-103	-2779	-2705	-2560	
20	20	2793	-469	377	830	
21	21	811	2743	2839	2745	
22	22	-2621	1313	440	-80	
23	23	-1556	-2284	-2673	-2784	
24	24	2162	-1837	-1109	-677	
25	25	2077	1899	2431	2603	
26	26	-1638	2421	1801	1347	
27	27	-2583	-1138	-1887	-2237	
28	28	911	-2655	-2281	-1973	
29	29	2765	538	1344	1725	
30	30	-190	2876	2667	2408	
31	31	-2884	345	-544	-1048	
32	32	-610	-2696	-2788	-2721	
33	33	2669	-960	-127	339	
34	34	1279	2535	2793	2795	
35	35	-2364	1747	936	425	
36	36	-1969	-1966	-2487	-2694	
37	37	1805	-2189	-1555	-1142	
38	38	2379	1478	2120	2378	
39	39	-1189	2661	2161	1767	
40	40	-2779	-659	-1486	-1893	
41	41	424	-2758	-2542	-2299	
42	42	2822	29	880	1295	
43	43	306	2854	2802	2623	
44	44	-2797	828	-15	-556	
45	45	-1098	-2534	-2776	-2804	
46	46	2457	-1410	-627	-156	
47	47	1701	2252	2655	2749	
48	48	-2023	2134	1393	910	
49	49	-2306	-1584	-2227	-2504	
50	50	1372	-2458	-1946	-1581	
51	51	2618	1027	1759	2089	
52	52	-700	2809	2448	2128	
53	53	-2870	-160	-1033	-1493	
54	54	-107	-2781	-2712	-2546	
55	55	2785	-464	380	825	
56	56	799	2739	2840	2752	
57	57	-2612	1306	435	-84	
58	58	-1570	-2291	-2670	-2790	
59	59	2158	-1836	-1122	-669	
60	60	2081	1901	2430	2604	
61	61	-1644	2424	1808	1360	
62	62	-2588	-1139	-1875	-2238	
63	63	921	-2661	-2282	-1980	
64	64	2766	548	1346	1722	
65	65	-199	2872	2666	2411	
66	66	-2881	350	-548	-1059	
67	67	-602	-2699	-2788	-2720	
68	68	2662	-961	-129	345	
69	69	1265	2536	2791	2791	
70	70	-2366	1736	925	415	
71	71	-1967	-1965	-2487	-2691	
72	72	1797	-2182	-1554	-1138	
73	73	2385	1489	2133	2381	
74	74	-1192	2664	2159	1767	
75	75	-2782	-663	-1477	-1889	
76	76	413	-2763	-2538	-2309	
77	77	2831	40	874	1300	
78	78	310	2855	2796	2626	
79	79	-2790	846	-46	-567	
80	80	-1107	-2539	-2773	-2804	
81	81	2457	-1414	-634	-164	
82	82	1703	2251	2658	2749	
83	83	-2030	2113	1396	902	
84	84	-2310	-1579	-2224	-2495	
85	85	1368	-2460	-1942	-1583	
86	86	2612	1022	1760	2078	
87	87	-714	2813	2452	2123	
88	88	-2872	-164	-1037	-1498	
89	89	-100	-2780	-2702	-2558	
90	90	2793	-469	376	828	
91	91	801	2740	2846	2755	
92	92	-2615	1311	439	-75	
93	93	-1570	-2282	-2678	-2787	
94	94	2161	-1844	-1104	-663	
95	95	2076	1900	2430	2604	
96	96	-1642	2431	1798	1356	
97	97	-2586	-1140	-1877	-2237	
98	98	914	-2660	-2276	-1982	
99	99	2763	542	1344	1722	
100	100	-205	2878	2661	2407	
101	101	-2879	336	-552	-1056	
102	102	-614	-2697	-2785	-2722	
103	103	2664	-969	-132	335	
104	104	1273	2536	2791	2800	
105	105	-2366	1744	937	415	
106	106	-1969	-1964	-2488	-2689	
107	107	1797	-2182	-1560	-1146	
108	108	2379	1481	2137	2378	
109	109	-1194	2658	2156	1757	
110	110	-2777	-662	-1486	-1902	
111	111	418	-2759	-2539	-2302	
112	112	2827	40	877	1301	
113	113	306	2855	2800	2620	
114	114	-2787	850	-60	-576	
115	115	-1099	-2536	-2771	-2803	
116	116	2451	-1419	-629	-164	
117	117	1698	2248	2665	2752	
118	118	-2041	2120	1391	889	
119	119	-2310	-1576	-2222	-2500	
120	120	1369	-2455	-1946	-1585	
121	121	2620	1022	1761	2078	
122	122	-707	2818	2450	2119	
123	123	-2870	-154	-1024	-1496	
124	124	-103	-2771	-2707	-2554	
125	125	2793	-470	375	834	
126	126	806	2748	2837	2754	
127	127	-2618	1308	452	-78	
128	128	-1563	-2286	-2672	-2785	
129	129	2162	-1835	-1114	-664	
130	130	2077	1897	2429	2608	
131	131	-1641	2425	1812	1359	
132	132	-2590	-1136	-1885	-2240	
133	133	913	-2653	-2280	-1970	
134	134	2760	539	1341	1717	
135	135	-208	2880	2662	2408	
136	136	-2880	335	-555	-1046	
137	137	-605	-2693	-2782	-2723	
138	138	2665	-953	-128	350	
139	139	1282	2528	2791	2794	
140	140	-2360	1741	929	420	
141	141	-1968	-1970	-2488	-2687	
142	142	1801	-2188	-1558	-1144	
143	143	2385	1488	2132	2387	
144	144	-1190	2663	2161	1753	
145	145	-2776	-655	-1483	-1897	
146	146	415	-2760	-2537	-2301	
147	147	2821	42	883	1293	
148	148	305	2852	2797	2616	
149	149	-2793	843	-58	-574	
150	150	-1110	-2534	-2774	-2802	
151	151	2452	-1424	-630	-169	
152	152	1706	2248	2652	2740	
153	153	-2034	2126	1386	901	
154	154	-2317	-1584	-2217	-2500	
155	155	1377	-2458	-1957	-1595	
156	156	2612	1020	1753	2081	
157	157	-708	2818	2447	2125	
158	158	-2872	-155	-1033	-1496	
159	159	-100	-2782	-2706	-2558	
160	160	2791	-471	375	836	
161	161	805	2739	2839	2750	
162	162	-2617	1306	442	-82	
163	163	-1560	-2286	-2677	-2787	
164	164	2158	-1828	-1107	-650	
165	165	2074	1897	2428	2611	
166	166	-1640	2424	1801	1360	
167	167	-2587	-1138	-1882	-2238	
168	168	917	-2663	-2286	-1982	
169	169	2766	540	1339	1713	
170	170	-190	2883	2671	2404	
171	171	-2879	351	-544	-1040	
172	172	-620	-2697	-2781	-2723	
173	173	2667	-964	-125	337	
174	174	1279	2530	2787	2789	
175	175	-2360	1743	937	421	
176	176	-1964	-1963	-2482	-2685	
177	177	1796	-2183	-1552	-1142	
178	178	2388	1479	2126	2378	
179	179	-1186	2660	2161	1771	
180	180	-2772	-650	-1478	-1887	
181	181	420	-2758	-2531	-2302	
182	182	2828	31	870	1291	
183	183	311	2855	2799	2626	
184	184	-2786	851	-60	-578	
185	185	-1102	-2534	-2773	-2804	
186	186	2452	-1423	-634	-170	
187	187	1701	2250	2653	2746	
188	188	-2031	2118	1437	922	
189	189	-2311	-1575	-2231	-2508	
190	190	1367	-2457	-1947	-1583	
191	191	2617	1015	1758	2074	
192	192	-697	2818	2451	2125	
193	193	-2867	-150	-1024	-1490	
194	194	-99	-2782	-2704	-2551	
195	195	2791	-472	375	830	
196	196	802	2744	2841	2754	
197	197	-2617	1312	423	-75	
198	198	-1560	-2288	-2673	-2787	
199	199	2161	-1831	-1113	-663	
200	200	2073	1896	2429	2605	
201	201	-1631	2423	1794	1358	
202	202	-2588	-1140	-1873	-2233	
203	203	906	-2657	-2287	-1987	
204	204	2771	535	1344	1723	
205	205	-204	2875	2672	2412	
206	206	-2881	349	-541	-1056	
207	207	-608	-2693	-2786	-2724	
208	208	2662	-962	-133	343	
209	209	1270	2536	2795	2789	
210	210	-2363	1746	938	418	
211	211	-1967	-1958	-2484	-2683	
212	212	1801	-2188	-1555	-1147	
213	213	2380	1485	2131	2377	
214	214	-1185	2658	2159	1766	
215	215	-2775	-655	-1480	-1895	
216	216	422	-2762	-2535	-2302	
217	217	2828	32	882	1304	
218	218	307	2855	2798	2620	
219	219	-2791	851	-47	-564	
220	220	-1104	-2531	-2772	-2798	
221	221	2449	-1422	-634	-164	
222	222	1710	2254	2656	2743	
223	223	-2039	2119	1395	907	
224	224	-2309	-1581	-2222	-2501	
225	225	1369	-2458	-1949	-1570	
226	226	2619	1014	1754	2075	
227	227	-710	2815	2444	2121	
228	228	-2867	-155	-1028	-1498	
229	229	-103	-2775	-2707	-2549	
230	230	2792	-470	378	831	
231	231	800	2735	2841	2753	
232	232	-2617	1309	440	-88	
233	233	-1558	-2289	-2674	-2783	
234	234	2164	-1837	-1102	-664	
235	235	2083	1898	2431	2603	
236	236	-1644	2423	1807	1353	
237	237	-2584	-1146	-1890	-2235	
238	238	908	-2660	-2286	-1980	
239	239	2767	530	1332	1717	
240	240	-200	2876	2667	2405	
241	241	-2877	346	-541	-1045	
242	242	-607	-2696	-2788	-2723	
243	243	2671	-960	-127	338	
244	244	1275	2535	2791	2797	
245	245	-2359	1742	932	415	
246	246	-1965	-1960	-2486	-2690	
247	247	1798	-2185	-1559	-1145	
248	248	2384	1484	2124	2383	
249	249	-1195	2662	2164	1769	
250	250	-2776	-654	-1478	-1894	
251	251	418	-2766	-2544	-2301	
252	252	2824	29	869	1303	
253	253	302	2852	2803	2624	
254	254	-2792	842	-57	-575	
255	255	-1099	-2523	-2775	-2802	
256	256	2459	-1415	-633	-161	
257	257	1713	2257	2657	2737	
258	258	-2033	2121	1390	902	
259	259	-2318	-1579	-2217	-2501	
260	260	1374	-2454	-1944	-1574	
261	261	2614	1018	1757	2084	
262	262	-697	2817	2453	2125	
263	263	-2872	-161	-1030	-1501	
264	264	-100	-2772	-2706	-2553	
265	265	2792	-473	371	835	
266	266	813	2738	2843	2752	
267	267	-2619	1315	456	-71	
268	268	-1558	-2297	-2674	-2783	
269	269	2154	-1838	-1111	-667	
270	270	2084	1890	2422	2602	
271	271	-1635	2430	1806	1366	
272	272	-2583	-1124	-1875	-2234	
273	273	905	-2657	-2277	-1975	
274	274	2768	532	1337	1720	
275	275	-204	2875	2670	2413	
276	276	-2882	357	-548	-1043	
277	277	-609	-2697	-2788	-2721	
278	278	2669	-963	-129	340	
279	279	1275	2532	2794	2796	
280	280	-2363	1738	933	424	
281	281	-1976	-1969	-2488	-2687	
282	282	1794	-2187	-1565	-1143	
283	283	2379	1477	2126	2380	
284	284	-1189	2661	2160	1763	
285	285	-2771	-664	-1494	-1894	
286	286	413	-2766	-2534	-2299	
287	287	2824	35	873	1296	
288	288	302	2856	2796	2624	
289	289	-2793	842	-59	-570	
290	290	-1103	-2529	-2779	-2797	
291	291	2459	-1422	-629	-164	
292	292	1693	2249	2654	2746	
293	293	-2028	2116	1391	897	
294	294	-2309	-1592	-2220	-2502	
295	295	1373	-2457	-1950	-1585	
296	296	2618	1029	1761	2080	
297	297	-706	2815	2450	2121	
298	298	-2873	-157	-1028	-1496	
299	299	-104	-2777	-2708	-2551	
300	300	2792	-478	368	827	
301	301	798	2736	2845	2754	
302	302	-2616	1314	447	-79	
303	303	-1557	-2287	-2674	-2793	
304	304	2158	-1828	-1119	-661	
305	305	2097	1901	2435	2606	
306	306	-1643	2427	1813	1366	
307	307	-2584	-1138	-1883	-2231	
308	308	917	-2656	-2281	-1976	
309	309	2771	546	1343	1723	
310	310	-199	2877	2665	2411	
311	311	-2876	348	-542	-1043	
312	312	-597	-2702	-2782	-2718	
313	313	2662	-965	-125	341	
314	314	1272	2532	2791	2797	
315	315	-2367	1745	934	425	
316	316	-1964	-1967	-2486	-2690	
317	317	1799	-2180	-1547	-1141	
318	318	2390	1486	2128	2381	
319	319	-1191	2661	2168	1768	
320	320	-2781	-655	-1478	-1895	
321	321	418	-2764	-2542	-2306	
322	322	2815	37	872	1299	
323	323	300	2852	2801	2622	
324	324	-2791	842	-51	-571	
325	325	-1098	-2532	-2773	-2800	
326	326	2455	-1427	-619	-166	
327	327	1699	2254	2659	2752	
328	328	-2039	2110	1390	901	
329	329	-2308	-1578	-2221	-2503	
330	330	1383	-2459	-1959	-1585	
331	331	2623	1025	1751	2073	
332	332	-709	2814	2449	2117	
333	333	-2875	-158	-1028	-1492	
334	334	-91	-2781	-2707	-2553	
335	335	2792	-477	378	825	
336	336	779	2744	2844	2757	
337	337	-2609	1291	497	-67	
338	338	-1553	-2287	-2673	-2787	
339	339	2165	-1833	-1106	-659	
340	340	2075	1901	2435	2606	
341	341	-1642	2434	1807	1356	
342	342	-2586	-1146	-1877	-2246	
343	343	909	-2658	-2282	-1983	
344	344	2770	539	1340	1717	
345	345	-193	2881	2667	2413	
346	346	-2880	349	-551	-1041	
347	347	-603	-2701	-2789	-2721	
348	348	2665	-956	-130	342	
349	349	1267	2533	2794	2793	
350	350	-2359	1748	928	429	
351	351	-1968	-1973	-2482	-2682	
352	352	1800	-2183	-1548	-1139	
353	353	2390	1492	2137	2386	
354	354	-1189	2658	2163	1765	
355	355	-2774	-658	-1484	-1893	
356	356	418	-2768	-2535	-2300	
357	357	2826	36	883	1299	
358	358	303	2856	2797	2622	
359	359	-2800	850	-49	-568	
360	360	-1096	-2538	-2776	-2802	
361	361	2465	-1419	-625	-158	
362	362	1706	2251	2659	2747	
363	363	-2028	2125	1400	905	
364	364	-2313	-1588	-2221	-2498	
365	365	1370	-2458	-1947	-1581	
366	366	2614	1013	1760	2076	
367	367	-711	2819	2452	2129	
368	368	-2873	-168	-1039	-1497	
369	369	-91	-2784	-2706	-2552	
370	370	2791	-462	379	832	
371	371	800	2732	2842	2760	
372	372	-2628	1307	439	-78	
373	373	-1564	-2292	-2682	-2796	
374	374	2161	-1833	-1114	-670	
375	375	2074	1899	2430	2607	
376	376	-1639	2420	1799	1352	
377	377	-2586	-1140	-1880	-2237	
378	378	915	-2661	-2272	-1972	
379	379	2762	531	1336	1720	
380	380	-205	2872	2663	2411	
381	381	-2882	349	-551	-1052	
382	382	-618	-2698	-2786	-2722	
383	383	2668	-968	-131	330	
384	384	1274	2538	2792	2792	
385	385	-2359	1733	930	421	
386	386	-1962	-1962	-2487	-2687	
387	387	1796	-2183	-1558	-1147	
388	388	2383	1486	2134	2382	
389	389	-1186	2660	2158	1756	
390	390	-2768	-655	-1480	-1895	
391	391	414	-2764	-2540	-2308	
392	392	2827	45	882	1296	
393	393	302	2854	2791	2623	
394	394	-2800	837	-53	-572	
395	395	-1104	-2538	-2778	-2801	
396	396	2455	-1413	-625	-159	
397	397	1708	2245	2653	2744	
398	398	-2029	2122	1394	913	
399	399	-2314	-1587	-2224	-2500	
400	400	1373	-2461	-1953	-1587	
401	401	2621	1024	1765	2082	
402	402	-696	2809	2458	2126	
403	403	-2876	-153	-1025	-1487	
404	404	-90	-2775	-2704	-2556	
405	405	2785	-460	384	841	
406	406	801	2738	2842	2756	
407	407	-2616	1311	436	-74	
408	408	-1554	-2280	-2675	-2790	
409	409	2157	-1831	-1105	-648	
410	410	2080	1895	2425	2606	
411	411	-1644	2425	1811	1355	
412	412	-2584	-1141	-1879	-2235	
413	413	924	-2661	-2274	-1981	
414	414	2767	551	1348	1723	
415	415	-201	2880	2671	2416	
416	416	-2878	335	-559	-1053	
417	417	-617	-2701	-2786	-2722	
418	418	2666	-961	-124	333	
419	419	1275	2531	2792	2796	
420	420	-2357	1738	923	419	
421	421	-1962	-1968	-2494	-2690	
422	422	1798	-2183	-1549	-1137	
423	423	2383	1485	2128	2385	
424	424	-1191	2658	2160	1760	
425	425	-2779	-659	-1479	-1892	
426	426	414	-2765	-2540	-2313	
427	427	2822	35	881	1293	
428	428	297	2861	2791	2622	
429	429	-2793	834	-61	-581	
430	430	-1096	-2534	-2780	-2798	
431	431	2449	-1419	-634	-160	
432	432	1706	2250	2659	2741	
433	433	-2035	2118	1384	906	
434	434	-2315	-1584	-2217	-2501	
435	435	1372	-2455	-1946	-1580	
436	436	2618	1020	1756	2079	
437	437	-710	2817	2455	2120	
438	438	-2873	-153	-1038	-1494	
439	439	-95	-2782	-2705	-2553	
440	440	2792	-470	378	838	
441	441	805	2741	2846	2754	
442	442	-2614	1318	445	-67	
443	443	-1557	-2282	-2673	-2786	
444	444	2161	-1833	-1102	-664	
445	445	2082	1900	2427	2607	
446	446	-1643	2429	1807	1360	
447	447	-2588	-1138	-1888	-2241	
448	448	918	-2655	-2278	-1971	
449	449	2773	539	1341	1716	
450	450	-199	2881	2675	2413	
451	451	-2869	350	-556	-1056	
452	452	-601	-2696	-2784	-2722	
453	453	2667	-956	-119	341	
454	454	1271	2539	2792	2793	
455	455	-2369	1742	927	411	
456	456	-1970	-1972	-2491	-2695	
457	457	1791	-2183	-1553	-1144	
458	458	2384	1473	2126	2370	
459	459	-1185	2660	2164	1765	
460	460	-2767	-658	-1482	-1904	
461	461	409	-2767	-2534	-2297	
462	462	2822	33	871	1287	
463	463	303	2856	2801	2628	
464	464	-2794	855	-41	-579	
465	465	-1103	-2535	-2772	-2798	
466	466	2458	-1421	-631	-165	
467	467	1708	2257	2659	2747	
468	468	-2034	2119	1387	903	
469	469	-2316	-1583	-2225	-2503	
470	470	1378	-2456	-1944	-1584	
471	471	2615	1022	1756	2079	
472	472	-710	2815	2459	2126	
473	473	-2873	-164	-1036	-1502	
474	474	-98	-2783	-2703	-2558	
475	475	2798	-471	388	822	
476	476	792	2747	2842	2758	
477	477	-2611	1296	493	-69	
478	478	-1561	-2286	-2664	-2785	
479	479	2166	-1830	-1104	-657	
480	480	2084	1894	2435	2604	
481	481	-1642	2427	1806	1358	
482	482	-2587	-1142	-1887	-2240	
483	483	921	-2661	-2283	-1981	
484	484	2764	535	1342	1718	
485	485	-202	2872	2663	2410	
486	486	-2878	343	-550	-1047	
487	487	-599	-2704	-2782	-2721	
488	488	2671	-957	-124	347	
489	489	1275	2532	2799	2792	
490	490	-2369	1743	939	424	
491	491	-1969	-1968	-2491	-2688	
492	492	1799	-2181	-1552	-1145	
493	493	2387	1490	2142	2386	
494	494	-1199	2657	2160	1765	
495	495	-2776	-670	-1485	-1899	
496	496	419	-2769	-2539	-2307	
497	497	2817	35	878	1294	
498	498	307	2847	2801	2622	
499	499	-2794	847	-53	-562	
500	500	-1103	-2532	-2775	-2793	
501	501	2455	-1420	-630	-173	
502	502	1694	2251	2652	2744	
503	503	-2031	2116	1383	897	
504	504	-2312	-1578	-2219	-2497	
505	505	1375	-2460	-1952	-1583	
506	506	2617	1023	1758	2084	
507	507	-710	2817	2448	2125	
508	508	-2878	-165	-1031	-1499	
509	509	-107	-2782	-2699	-2551	
510	510	2792	-473	368	831	
511	511	805	2732	2842	2755	
512	512	-2618	1313	439	-77	
513	513	-1560	-2293	-2678	-2793	
514	514	2163	-1833	-1101	-663	
515	515	2066	1890	2425	2605	
516	516	-1641	2418	1795	1356	
517	517	-2593	-1143	-1885	-2236	
518	518	905	-2664	-2281	-1973	
519	519	2763	541	1340	1717	
520	520	-202	2878	2662	2416	
521	521	-2883	348	-547	-1056	
522	522	-602	-2703	-2785	-2718	
523	523	2666	-962	-117	344	
524	524	1274	2537	2795	2800	
525	525	-2360	1745	933	426	
526	526	-1968	-1962	-2482	-2687	
527	527	1798	-2181	-1560	-1153	
528	528	2385	1481	2134	2378	
529	529	-1192	2661	2144	1761	
530	530	-2779	-655	-1474	-1892	
531	531	414	-2765	-2536	-2303	
532	532	2825	41	885	1299	
533	533	301	2850	2805	2621	
534	534	-2793	846	-61	-570	
535	535	-1102	-2538	-2778	-2799	
536	536	2454	-1421	-633	-162	
537	537	1709	2261	2656	2746	
538	538	-2037	2121	1387	906	
539	539	-2309	-1590	-2220	-2506	
540	540	1381	-2452	-1939	-1579	
541	541	2615	1022	1755	2082	
542	542	-710	2818	2453	2125	
543	543	-2878	-162	-1034	-1502	
544	544	-91	-2781	-2707	-2553	
545	545	2793	-469	384	832	
546	546	796	2742	2845	2750	
547	547	-2629	1319	437	-73	
548	548	-1565	-2292	-2683	-2791	
549	549	2160	-1833	-1107	-661	
550	550	2080	1896	2425	2604	
551	551	-1645	2424	1800	1357	
552	552	-2592	-1145	-1890	-2239	
553	553	913	-2663	-2279	-1977	
554	554	2766	533	1343	1710	
555	555	-208	2880	2668	2406	
556	556	-2878	347	-552	-1054	
557	557	-618	-2696	-2780	-2719	
558	558	2669	-967	-135	337	
559	559	1269	2541	2793	2793	
560	560	-2364	1740	931	419	
561	561	-1962	-1971	-2491	-2686	
562	562	1800	-2183	-1548	-1145	
563	563	2384	1486	2127	2380	
564	564	-1196	2661	2154	1766	
565	565	-2779	-662	-1489	-1901	
566	566	421	-2767	-2535	-2307	
567	567	2830	29	888	1309	
568	568	293	2858	2798	2619	
569	569	-2792	834	-58	-578	
570	570	-1104	-2536	-2773	-2796	
571	571	2456	-1417	-635	-170	
572	572	1705	2253	2649	2738	
573	573	-2030	2112	1387	902	
574	574	-2319	-1582	-2217	-2501	
575	575	1374	-2458	-1948	-1584	
576	576	2616	1017	1756	2085	
577	577	-702	2811	2453	2119	
578	578	-2873	-159	-1031	-1488	
579	579	-91	-2774	-2704	-2560	
580	580	2791	-465	386	839	
581	581	800	2743	2842	2756	
582	582	-2615	1308	440	-88	
583	583	-1563	-2292	-2676	-2790	
584	584	2162	-1831	-1109	-659	
585	585	2071	1902	2437	2606	
586	586	-1636	2427	1790	1354	
587	587	-2587	-1138	-1882	-2237	
588	588	913	-2657	-2282	-1984	
589	589	2770	534	1343	1711	
590	590	-193	2873	2667	2415	
591	591	-2884	342	-555	-1049	
592	592	-607	-2699	-2784	-2723	
593	593	2669	-952	-119	347	
594	594	1280	2540	2794	2793	
595	595	-2353	1751	935	425	
596	596	-1967	-1965	-2488	-2689	
597	597	1801	-2181	-1549	-1139	
598	598	2391	1476	2123	2375	
599	599	-1195	2661	2161	1765	
600	600	-2772	-664	-1485	-1903	
601	601	412	-2760	-2530	-2296	
602	602	2823	30	871	1289	
603	603	310	2851	2796	2622	
604	604	-2796	845	-56	-566	
605	605	-1109	-2535	-2774	-2799	
606	606	2457	-1415	-634	-164	
607	607	1706	2251	2655	2743	
608	608	-2041	2124	1388	909	
609	609	-2311	-1589	-2226	-2507	
610	610	1372	-2460	-1953	-1579	
611	611	2620	1019	1764	2077	
612	612	-707	2819	2454	2117	
613	613	-2876	-155	-1033	-1496	
614	614	-103	-2780	-2705	-2549	
615	615	2790	-468	374	828	
616	616	787	2737	2843	2744	
617	617	-2617	1317	436	-79	
618	618	-1553	-2289	-2672	-2791	
619	619	2160	-1825	-1112	-654	
620	620	2079	1897	2429	2609	
621	621	-1637	2429	1802	1361	
622	622	-2586	-1136	-1877	-2233	
623	623	924	-2664	-2279	-1980	
624	624	2766	540	1343	1717	
625	625	-199	2882	2645	2404	
626	626	-2883	349	-554	-1044	
627	627	-607	-2700	-2789	-2712	
628	628	2665	-951	-120	341	
629	629	1280	2532	2794	2795	
630	630	-2368	1738	932	420	
631	631	-1966	-1969	-2490	-2682	
632	632	1801	-2183	-1550	-1142	
633	633	2391	1484	2132	2385	
634	634	-1198	2664	2163	1776	
635	635	-2771	-666	-1486	-1901	
636	636	411	-2762	-2533	-2297	
637	637	2827	36	873	1288	
638	638	301	2851	2804	2624	
639	639	-2792	851	-61	-572	
640	640	-1100	-2530	-2780	-2801	
641	641	2450	-1414	-626	-168	
642	642	1710	2246	2656	2745	
643	643	-2030	2119	1394	916	
644	644	-2304	-1580	-2223	-2504	
645	645	1376	-2467	-1952	-1581	
646	646	2608	1014	1756	2072	
647	647	-717	2810	2452	2121	
648	648	-2867	-164	-1030	-1494	
649	649	-96	-2775	-2707	-2555	
650	650	2789	-471	379	839	
651	651	805	2733	2840	2756	
652	652	-2618	1317	437	-80	
653	653	-1569	-2288	-2671	-2792	
654	654	2168	-1842	-1113	-670	
655	655	2074	1897	2440	2603	
656	656	-1634	2423	1807	1356	
657	657	-2589	-1135	-1875	-2235	
658	658	918	-2660	-2282	-1974	
659	659	2767	536	1342	1718	
660	660	-199	2881	2666	2416	
661	661	-2880	347	-557	-1047	
662	662	-606	-2702	-2783	-2721	
663	663	2669	-962	-120	347	
664	664	1277	2540	2793	2795	
665	665	-2364	1745	943	420	
666	666	-1966	-1962	-2483	-2682	
667	667	1802	-2188	-1548	-1139	
668	668	2383	1476	2125	2380	
669	669	-1199	2651	2154	1771	
